
T2DA4 000:508 SEGGER J-Link V4.96d Log File (0000ms, 0281ms total)
T2DA4 000:508 DLL Compiled: Jan 29 2015 11:45:37 (0000ms, 0281ms total)
T2DA4 000:508 Logging started @ 2020-04-29 16:25 (0000ms, 0281ms total)
T2DA4 000:508 JLINK_SetWarnOutHandler(...) (0000ms, 0281ms total)
T2DA4 000:508 JLINK_OpenEx(...)
Firmware: J-Link ARM-OB STM32 compiled Aug 22 2012 19:52:04
Hardware: V7.00
S/N: 20090928
Feature(s): RDI,FlashDL,FlashBP,JFlash,GDBFull  returns O.K. (0269ms, 0550ms total)
T2DA4 000:777 JLINK_SetErrorOutHandler(...) (0000ms, 0550ms total)
T2DA4 000:777 JLINK_ExecCommand("ProjectFile = "E:\GZ20嵌入式直播9班\现场笔记\25 UCOS\代码\05_ucos_信号量_任务同步\USER\JLinkSettings.ini"", ...)  returns 0x00 (0008ms, 0558ms total)
T2DA4 000:822 JLINK_ExecCommand("Device = STM32F407ZG", ...)Device "STM32F407ZG" selected.  returns 0x00 (0023ms, 0581ms total)
T2DA4 000:845 JLINK_ExecCommand("DisableConnectionTimeout", ...)  returns 0x01 (0000ms, 0581ms total)
T2DA4 000:845 JLINK_GetHardwareVersion()  returns 0x11170 (0000ms, 0581ms total)
T2DA4 000:845 JLINK_GetDLLVersion()  returns 49604 (0000ms, 0581ms total)
T2DA4 000:845 JLINK_GetFirmwareString(...) (0000ms, 0581ms total)
T2DA4 000:898 JLINK_GetDLLVersion()  returns 49604 (0000ms, 0581ms total)
T2DA4 000:898 JLINK_GetCompileDateTime() (0000ms, 0581ms total)
T2DA4 000:908 JLINK_GetFirmwareString(...) (0000ms, 0581ms total)
T2DA4 000:929 JLINK_GetHardwareVersion()  returns 0x11170 (0000ms, 0581ms total)
T2DA4 000:965 JLINK_TIF_Select(JLINKARM_TIF_SWD)  returns 0x00 (0000ms, 0581ms total)
T2DA4 000:965 JLINK_SetSpeed(10000) (0001ms, 0582ms total)
T2DA4 000:966 JLINK_GetId() >0x108 TIF>Found SWD-DP with ID 0x2BA01477 >0x0D TIF> >0x28 TIF> >0x0D TIF> >0x28 TIF> >0x0D TIF> >0x21 TIF> >0x0D TIF> >0x28 TIF> >0x0D TIF> >0x28 TIF> >0x0D TIF> >0x28 TIF> >0x0D TIF> >0x21 TIF> >0x0D TIF> >0x21 TIF> >0x0D TIF> >0x28 TIF> >0x0D TIF> >0x21 TIF> >0x0D TIF> >0x21 TIF> >0x0D TIF> >0x28 TIF> >0x0D TIF> >0x21 TIF> >0x0D TIF> >0x21 TIF> >0x108 TIF>Found SWD-DP with ID 0x2BA01477 >0x0D TIF> >0x21 TIF> >0x0D TIF> >0x28 TIF> >0x0D TIF> >0x28 TIF> >0x0D TIF> >0x21 TIF>
 >0x0D TIF> >0x28 TIF> >0x0D TIF> >0x21 TIF> >0x0D TIF> >0x21 TIF> >0x0D TIF> >0x21 TIF> >0x0D TIF> >0x21 TIF> >0x0D TIF> >0x28 TIF> >0x0D TIF> >0x28 TIF> >0x0D TIF> >0x21 TIF> >0x0D TIF> >0x28 TIF> >0x0D TIF> >0x28 TIF> >0x0D TIF> >0x28 TIF> >0x0D TIF> >0x21 TIF> >0x0D TIF> >0x21 TIF> >0x0D TIF> >0x28 TIF> >0x0D TIF> >0x21 TIF> >0x0D TIF> >0x21 TIF>Found Cortex-M4 r0p1, Little endian. -- CPU_WriteMem(4 bytes @ 0xE0002000) -- CPU_ReadMem(4 bytes @ 0xE000EDF0) -- CPU_ReadMem(4 bytes @ 0xE0002000)
FPUnit: 6 code (BP) slots and 2 literal slots -- CPU_ReadMem(4 bytes @ 0xE000EDFC) -- CPU_ReadMem(4 bytes @ 0xE0001000) -- CPU_WriteMem(4 bytes @ 0xE0001000) -- CPU_ReadMem(4 bytes @ 0xE000ED88) -- CPU_WriteMem(4 bytes @ 0xE000ED88) -- CPU_ReadMem(4 bytes @ 0xE000ED88) -- CPU_WriteMem(4 bytes @ 0xE000ED88) -- CPU_ReadMem(4 bytes @ 0xE00FF010)TPIU fitted. -- CPU_ReadMem(4 bytes @ 0xE00FF014)ETM fitted. -- CPU_ReadMem(4 bytes @ 0xE00FF018) >0x0D TIF> >0x21 TIF>  returns 0x2BA01477 (0108ms, 0690ms total)
T2DA4 001:075 JLINK_GetDLLVersion()  returns 49604 (0000ms, 0691ms total)
T2DA4 001:075 JLINK_CORE_GetFound()  returns 0xE0000FF (0000ms, 0691ms total)
T2DA4 001:075 JLINK_GetDebugInfo(0x100) -- Value=0xE00FF003  returns 0x00 (0000ms, 0691ms total)
T2DA4 001:085 JLINK_ReadMem (0xE00FF000, 0x0020 Bytes, ...) -- CPU is running -- CPU_ReadMem(32 bytes @ 0xE00FF000) - Data: 03 F0 F0 FF 03 20 F0 FF 03 30 F0 FF 03 10 F0 FF ...  returns 0x00 (0001ms, 0692ms total)
T2DA4 001:086 JLINK_ReadMem (0xE000EFF0, 0x0010 Bytes, ...) -- CPU is running -- CPU_ReadMem(16 bytes @ 0xE000EFF0) - Data: 0D 00 00 00 E0 00 00 00 05 00 00 00 B1 00 00 00  returns 0x00 (0000ms, 0692ms total)
T2DA4 001:086 JLINK_ReadMem (0xE000EFD0, 0x0020 Bytes, ...) -- CPU is running -- CPU_ReadMem(32 bytes @ 0xE000EFD0) - Data: 04 00 00 00 00 00 00 00 00 00 00 00 00 00 00 00 ...  returns 0x00 (0001ms, 0693ms total)
T2DA4 001:087 JLINK_ReadMem (0xE0001FF0, 0x0010 Bytes, ...) -- CPU is running -- CPU_ReadMem(16 bytes @ 0xE0001FF0) - Data: 0D 00 00 00 E0 00 00 00 05 00 00 00 B1 00 00 00  returns 0x00 (0001ms, 0694ms total)
T2DA4 001:088 JLINK_ReadMem (0xE0001FD0, 0x0020 Bytes, ...) -- CPU is running -- CPU_ReadMem(32 bytes @ 0xE0001FD0) - Data: 04 00 00 00 00 00 00 00 00 00 00 00 00 00 00 00 ...  returns 0x00 (0001ms, 0695ms total)
T2DA4 001:089 JLINK_ReadMem (0xE0002FF0, 0x0010 Bytes, ...) -- CPU is running -- CPU_ReadMem(16 bytes @ 0xE0002FF0) - Data: 0D 00 00 00 E0 00 00 00 05 00 00 00 B1 00 00 00  returns 0x00 (0000ms, 0695ms total)
T2DA4 001:089 JLINK_ReadMem (0xE0002FD0, 0x0020 Bytes, ...) -- CPU is running -- CPU_ReadMem(32 bytes @ 0xE0002FD0) - Data: 04 00 00 00 00 00 00 00 00 00 00 00 00 00 00 00 ...  returns 0x00 (0001ms, 0696ms total)
T2DA4 001:090 JLINK_ReadMem (0xE0000FF0, 0x0010 Bytes, ...) -- CPU is running -- CPU_ReadMem(16 bytes @ 0xE0000FF0) - Data: 0D 00 00 00 E0 00 00 00 05 00 00 00 B1 00 00 00  returns 0x00 (0001ms, 0697ms total)
T2DA4 001:091 JLINK_ReadMem (0xE0000FD0, 0x0020 Bytes, ...) -- CPU is running -- CPU_ReadMem(32 bytes @ 0xE0000FD0) - Data: 04 00 00 00 00 00 00 00 00 00 00 00 00 00 00 00 ...  returns 0x00 (0001ms, 0698ms total)
T2DA4 001:092 JLINK_ReadMem (0xE0040FF0, 0x0010 Bytes, ...) -- CPU is running -- CPU_ReadMem(16 bytes @ 0xE0040FF0) - Data: 0D 00 00 00 90 00 00 00 05 00 00 00 B1 00 00 00  returns 0x00 (0001ms, 0699ms total)
T2DA4 001:093 JLINK_ReadMem (0xE0040FD0, 0x0020 Bytes, ...) -- CPU is running -- CPU_ReadMem(32 bytes @ 0xE0040FD0) - Data: 04 00 00 00 00 00 00 00 00 00 00 00 00 00 00 00 ...  returns 0x00 (0001ms, 0700ms total)
T2DA4 001:094 JLINK_ReadMem (0xE0041FF0, 0x0010 Bytes, ...) -- CPU is running -- CPU_ReadMem(16 bytes @ 0xE0041FF0) - Data: 0D 00 00 00 90 00 00 00 05 00 00 00 B1 00 00 00  returns 0x00 (0000ms, 0700ms total)
T2DA4 001:094 JLINK_ReadMem (0xE0041FD0, 0x0020 Bytes, ...) -- CPU is running -- CPU_ReadMem(32 bytes @ 0xE0041FD0) - Data: 04 00 00 00 00 00 00 00 00 00 00 00 00 00 00 00 ...  returns 0x00 (0001ms, 0701ms total)
T2DA4 001:095 JLINK_ReadMemU32(0xE000EF40, 0x0001 Items, ...) -- CPU is running -- CPU_ReadMem(4 bytes @ 0xE000EF40) - Data: 21 00 11 10  returns 0x01 (0001ms, 0702ms total)
T2DA4 001:096 JLINK_ReadMemU32(0xE000EF44, 0x0001 Items, ...) -- CPU is running -- CPU_ReadMem(4 bytes @ 0xE000EF44) - Data: 11 00 00 11  returns 0x01 (0001ms, 0703ms total)
T2DA4 001:097 JLINK_ReadMemU32(0xE000ED00, 0x0001 Items, ...) -- CPU is running -- CPU_ReadMem(4 bytes @ 0xE000ED00) - Data: 41 C2 0F 41  returns 0x01 (0000ms, 0703ms total)
T2DA4 001:097 JLINK_SetResetType(JLINKARM_RESET_TYPE_NORMAL)  returns JLINKARM_RESET_TYPE_NORMAL (0000ms, 0703ms total)
T2DA4 001:097 JLINK_Reset() -- CPU is running -- CPU_WriteMem(4 bytes @ 0xE000EDF0) -- CPU is running -- CPU_WriteMem(4 bytes @ 0xE000EDFC) >0x35 TIF> -- CPU is running -- CPU_WriteMem(4 bytes @ 0xE000ED0C) -- CPU is running -- CPU_ReadMem(4 bytes @ 0xE000EDF0) -- CPU is running -- CPU_ReadMem(4 bytes @ 0xE000EDF0) -- CPU is running -- CPU_WriteMem(4 bytes @ 0xE000EDF0) -- CPU is running -- CPU_WriteMem(4 bytes @ 0xE000EDFC) -- CPU is running -- CPU_ReadMem(4 bytes @ 0xE000EDF0)
 -- CPU_WriteMem(4 bytes @ 0xE0002000) -- CPU_ReadMem(4 bytes @ 0xE000EDFC) -- CPU_ReadMem(4 bytes @ 0xE0001000) (0020ms, 0723ms total)
T2DA4 001:117 JLINK_Halt()  returns 0x00 (0000ms, 0723ms total)
T2DA4 001:117 JLINK_IsHalted()  returns TRUE (0000ms, 0723ms total)
T2DA4 001:117 JLINK_ReadMemU32(0xE000EDF0, 0x0001 Items, ...) -- CPU_ReadMem(4 bytes @ 0xE000EDF0) - Data: 03 00 03 00  returns 0x01 (0001ms, 0724ms total)
T2DA4 001:118 JLINK_WriteU32(0xE000EDF0, 0xA05F0003) -- CPU_WriteMem(4 bytes @ 0xE000EDF0)  returns 0x00 (0000ms, 0724ms total)
T2DA4 001:118 JLINK_WriteU32(0xE000EDFC, 0x01000000) -- CPU_WriteMem(4 bytes @ 0xE000EDFC)  returns 0x00 (0001ms, 0725ms total)
T2DA4 001:167 JLINK_GetHWStatus(...)  returns 0x00 (0000ms, 0725ms total)
T2DA4 001:199 JLINK_GetNumBPUnits(Type = 0xFFFFFF00)  returns 0x06 (0000ms, 0725ms total)
T2DA4 001:199 JLINK_GetNumBPUnits(Type = 0xF0)  returns 0x2000 (0000ms, 0725ms total)
T2DA4 001:199 JLINK_GetNumWPUnits()  returns 0x04 (0000ms, 0725ms total)
T2DA4 001:268 JLINK_GetSpeed()  returns 0xFA0 (0001ms, 0726ms total)
T2DA4 001:296 JLINK_ReadMemU32(0xE000E004, 0x0001 Items, ...) -- CPU_ReadMem(4 bytes @ 0xE000E004) - Data: 02 00 00 00  returns 0x01 (0001ms, 0727ms total)
T2DA4 001:297 JLINK_ReadMemU32(0xE000E004, 0x0001 Items, ...) -- CPU_ReadMem(4 bytes @ 0xE000E004) - Data: 02 00 00 00  returns 0x01 (0001ms, 0728ms total)
T2DA4 001:298 JLINK_WriteMem(0xE0001000, 0x001C Bytes, ...) - Data: 01 00 00 00 00 00 00 00 00 00 00 00 00 00 00 00 ... -- CPU_WriteMem(28 bytes @ 0xE0001000)  returns 0x1C (0001ms, 0729ms total)
T2DA4 001:299 JLINK_ReadMem (0xE0001000, 0x001C Bytes, ...) -- CPU_ReadMem(28 bytes @ 0xE0001000) - Data: 01 00 00 40 00 00 00 00 00 00 00 00 00 00 00 00 ...  returns 0x00 (0001ms, 0730ms total)
T2DA4 001:300 JLINK_Halt()  returns 0x00 (0000ms, 0730ms total)
T2DA4 001:300 JLINK_IsHalted()  returns TRUE (0000ms, 0730ms total)
T2DA4 001:309 JLINK_WriteMem(0x20000000, 0x0180 Bytes, ...) - Data: 00 BE 0A E0 0D 78 2D 06 68 40 08 24 40 00 00 D3 ... -- CPU_WriteMem(384 bytes @ 0x20000000)  returns 0x180 (0006ms, 0736ms total)
T2DA4 001:315 JLINK_WriteReg(R0, 0x08000000)  returns 0x00 (0000ms, 0736ms total)
T2DA4 001:315 JLINK_WriteReg(R1, 0x00B71B00)  returns 0x00 (0000ms, 0736ms total)
T2DA4 001:315 JLINK_WriteReg(R2, 0x00000001)  returns 0x00 (0000ms, 0736ms total)
T2DA4 001:315 JLINK_WriteReg(R3, 0x00000000)  returns 0x00 (0000ms, 0736ms total)
T2DA4 001:315 JLINK_WriteReg(R4, 0x00000000)  returns 0x00 (0000ms, 0736ms total)
T2DA4 001:315 JLINK_WriteReg(R5, 0x00000000)  returns 0x00 (0000ms, 0736ms total)
T2DA4 001:315 JLINK_WriteReg(R6, 0x00000000)  returns 0x00 (0001ms, 0737ms total)
T2DA4 001:316 JLINK_WriteReg(R7, 0x00000000)  returns 0x00 (0000ms, 0737ms total)
T2DA4 001:316 JLINK_WriteReg(R8, 0x00000000)  returns 0x00 (0000ms, 0737ms total)
T2DA4 001:316 JLINK_WriteReg(R9, 0x2000017C)  returns 0x00 (0000ms, 0737ms total)
T2DA4 001:316 JLINK_WriteReg(R10, 0x00000000)  returns 0x00 (0000ms, 0737ms total)
T2DA4 001:316 JLINK_WriteReg(R11, 0x00000000)  returns 0x00 (0000ms, 0737ms total)
T2DA4 001:316 JLINK_WriteReg(R12, 0x00000000)  returns 0x00 (0000ms, 0737ms total)
T2DA4 001:316 JLINK_WriteReg(R13 (SP), 0x20001000)  returns 0x00 (0000ms, 0737ms total)
T2DA4 001:316 JLINK_WriteReg(R14, 0x20000001)  returns 0x00 (0000ms, 0737ms total)
T2DA4 001:316 JLINK_WriteReg(R15 (PC), 0x20000054)  returns 0x00 (0000ms, 0737ms total)
T2DA4 001:316 JLINK_WriteReg(XPSR, 0x01000000)  returns 0x00 (0000ms, 0737ms total)
T2DA4 001:316 JLINK_WriteReg(MSP, 0x20001000)  returns 0x00 (0000ms, 0737ms total)
T2DA4 001:316 JLINK_WriteReg(PSP, 0x20001000)  returns 0x00 (0000ms, 0737ms total)
T2DA4 001:316 JLINK_WriteReg(CFBP, 0x00000000)  returns 0x00 (0000ms, 0737ms total)
T2DA4 001:316 JLINK_SetBPEx(Addr = 0x20000000, Type = 0xFFFFFFF2) -- CPU_ReadMem(2 bytes @ 0x20000000)  returns 0x00000001 (0001ms, 0738ms total)
T2DA4 001:317 JLINK_Go() -- CPU_WriteMem(2 bytes @ 0x20000000) -- CPU_WriteMem(4 bytes @ 0xE0002008) -- CPU_WriteMem(4 bytes @ 0xE000200C) -- CPU_WriteMem(4 bytes @ 0xE0002010) -- CPU_WriteMem(4 bytes @ 0xE0002014) -- CPU_WriteMem(4 bytes @ 0xE0002018) -- CPU_WriteMem(4 bytes @ 0xE000201C) -- CPU_WriteMem(4 bytes @ 0xE0001004) (0005ms, 0743ms total)
T2DA4 001:322 JLINK_IsHalted() -- CPU_ReadMem(2 bytes @ 0x20000000)  returns TRUE (0004ms, 0747ms total)
T2DA4 001:326 JLINK_ReadReg(R15 (PC))  returns 0x20000000 (0000ms, 0743ms total)
T2DA4 001:326 JLINK_ClrBPEx(BPHandle = 0x00000001)  returns 0x00 (0000ms, 0743ms total)
T2DA4 001:326 JLINK_ReadReg(R0)  returns 0x00000000 (0000ms, 0743ms total)
T2DA4 001:327 JLINK_WriteReg(R0, 0x08000000)  returns 0x00 (0000ms, 0743ms total)
T2DA4 001:327 JLINK_WriteReg(R1, 0x00004000)  returns 0x00 (0000ms, 0743ms total)
T2DA4 001:327 JLINK_WriteReg(R2, 0x000000FF)  returns 0x00 (0000ms, 0743ms total)
T2DA4 001:327 JLINK_WriteReg(R3, 0x00000000)  returns 0x00 (0000ms, 0743ms total)
T2DA4 001:327 JLINK_WriteReg(R4, 0x00000000)  returns 0x00 (0000ms, 0743ms total)
T2DA4 001:327 JLINK_WriteReg(R5, 0x00000000)  returns 0x00 (0000ms, 0743ms total)
T2DA4 001:327 JLINK_WriteReg(R6, 0x00000000)  returns 0x00 (0000ms, 0743ms total)
T2DA4 001:327 JLINK_WriteReg(R7, 0x00000000)  returns 0x00 (0000ms, 0743ms total)
T2DA4 001:327 JLINK_WriteReg(R8, 0x00000000)  returns 0x00 (0000ms, 0743ms total)
T2DA4 001:327 JLINK_WriteReg(R9, 0x2000017C)  returns 0x00 (0001ms, 0744ms total)
T2DA4 001:328 JLINK_WriteReg(R10, 0x00000000)  returns 0x00 (0000ms, 0744ms total)
T2DA4 001:328 JLINK_WriteReg(R11, 0x00000000)  returns 0x00 (0000ms, 0744ms total)
T2DA4 001:328 JLINK_WriteReg(R12, 0x00000000)  returns 0x00 (0000ms, 0744ms total)
T2DA4 001:328 JLINK_WriteReg(R13 (SP), 0x20001000)  returns 0x00 (0000ms, 0744ms total)
T2DA4 001:328 JLINK_WriteReg(R14, 0x20000001)  returns 0x00 (0000ms, 0744ms total)
T2DA4 001:328 JLINK_WriteReg(R15 (PC), 0x20000020)  returns 0x00 (0000ms, 0744ms total)
T2DA4 001:328 JLINK_WriteReg(XPSR, 0x01000000)  returns 0x00 (0000ms, 0744ms total)
T2DA4 001:328 JLINK_WriteReg(MSP, 0x20001000)  returns 0x00 (0000ms, 0744ms total)
T2DA4 001:328 JLINK_WriteReg(PSP, 0x20001000)  returns 0x00 (0000ms, 0744ms total)
T2DA4 001:328 JLINK_WriteReg(CFBP, 0x00000000)  returns 0x00 (0000ms, 0744ms total)
T2DA4 001:328 JLINK_SetBPEx(Addr = 0x20000000, Type = 0xFFFFFFF2)  returns 0x00000002 (0000ms, 0744ms total)
T2DA4 001:328 JLINK_Go() (0002ms, 0746ms total)
T2DA4 001:330 JLINK_IsHalted() -- CPU_ReadMem(2 bytes @ 0x20000000)  returns TRUE (0006ms, 0752ms total)
T2DA4 001:336 JLINK_ReadReg(R15 (PC))  returns 0x20000000 (0000ms, 0746ms total)
T2DA4 001:336 JLINK_ClrBPEx(BPHandle = 0x00000002)  returns 0x00 (0000ms, 0746ms total)
T2DA4 001:336 JLINK_ReadReg(R0)  returns 0x00000001 (0000ms, 0746ms total)
T2DA4 001:336 JLINK_WriteReg(R0, 0x08000000)  returns 0x00 (0000ms, 0746ms total)
T2DA4 001:336 JLINK_WriteReg(R1, 0x00004000)  returns 0x00 (0000ms, 0746ms total)
T2DA4 001:336 JLINK_WriteReg(R2, 0x000000FF)  returns 0x00 (0000ms, 0746ms total)
T2DA4 001:336 JLINK_WriteReg(R3, 0x00000000)  returns 0x00 (0000ms, 0746ms total)
T2DA4 001:336 JLINK_WriteReg(R4, 0x00000000)  returns 0x00 (0000ms, 0746ms total)
T2DA4 001:336 JLINK_WriteReg(R5, 0x00000000)  returns 0x00 (0000ms, 0746ms total)
T2DA4 001:336 JLINK_WriteReg(R6, 0x00000000)  returns 0x00 (0000ms, 0746ms total)
T2DA4 001:336 JLINK_WriteReg(R7, 0x00000000)  returns 0x00 (0000ms, 0746ms total)
T2DA4 001:336 JLINK_WriteReg(R8, 0x00000000)  returns 0x00 (0000ms, 0746ms total)
T2DA4 001:336 JLINK_WriteReg(R9, 0x2000017C)  returns 0x00 (0000ms, 0746ms total)
T2DA4 001:336 JLINK_WriteReg(R10, 0x00000000)  returns 0x00 (0000ms, 0746ms total)
T2DA4 001:336 JLINK_WriteReg(R11, 0x00000000)  returns 0x00 (0000ms, 0746ms total)
T2DA4 001:336 JLINK_WriteReg(R12, 0x00000000)  returns 0x00 (0000ms, 0746ms total)
T2DA4 001:336 JLINK_WriteReg(R13 (SP), 0x20001000)  returns 0x00 (0000ms, 0746ms total)
T2DA4 001:336 JLINK_WriteReg(R14, 0x20000001)  returns 0x00 (0000ms, 0746ms total)
T2DA4 001:336 JLINK_WriteReg(R15 (PC), 0x200000BC)  returns 0x00 (0000ms, 0746ms total)
T2DA4 001:336 JLINK_WriteReg(XPSR, 0x01000000)  returns 0x00 (0000ms, 0746ms total)
T2DA4 001:336 JLINK_WriteReg(MSP, 0x20001000)  returns 0x00 (0000ms, 0746ms total)
T2DA4 001:336 JLINK_WriteReg(PSP, 0x20001000)  returns 0x00 (0000ms, 0746ms total)
T2DA4 001:336 JLINK_WriteReg(CFBP, 0x00000000)  returns 0x00 (0000ms, 0746ms total)
T2DA4 001:336 JLINK_SetBPEx(Addr = 0x20000000, Type = 0xFFFFFFF2)  returns 0x00000003 (0000ms, 0746ms total)
T2DA4 001:336 JLINK_Go() (0002ms, 0748ms total)
T2DA4 001:338 JLINK_IsHalted()  returns FALSE (0001ms, 0749ms total)
T2DA4 001:618 JLINK_IsHalted()  returns FALSE (0000ms, 0748ms total)
T2DA4 001:756 JLINK_IsHalted() -- CPU_ReadMem(2 bytes @ 0x20000000)  returns TRUE (0003ms, 0751ms total)
T2DA4 001:759 JLINK_ReadReg(R15 (PC))  returns 0x20000000 (0000ms, 0748ms total)
T2DA4 001:759 JLINK_ClrBPEx(BPHandle = 0x00000003)  returns 0x00 (0001ms, 0749ms total)
T2DA4 001:760 JLINK_ReadReg(R0)  returns 0x00000000 (0000ms, 0749ms total)
T2DA4 001:762 JLINK_WriteReg(R0, 0x08004000)  returns 0x00 (0000ms, 0749ms total)
T2DA4 001:762 JLINK_WriteReg(R1, 0x00004000)  returns 0x00 (0000ms, 0749ms total)
T2DA4 001:762 JLINK_WriteReg(R2, 0x000000FF)  returns 0x00 (0000ms, 0749ms total)
T2DA4 001:763 JLINK_WriteReg(R3, 0x00000000)  returns 0x00 (0000ms, 0750ms total)
T2DA4 001:763 JLINK_WriteReg(R4, 0x00000000)  returns 0x00 (0000ms, 0750ms total)
T2DA4 001:763 JLINK_WriteReg(R5, 0x00000000)  returns 0x00 (0000ms, 0750ms total)
T2DA4 001:763 JLINK_WriteReg(R6, 0x00000000)  returns 0x00 (0000ms, 0750ms total)
T2DA4 001:763 JLINK_WriteReg(R7, 0x00000000)  returns 0x00 (0000ms, 0750ms total)
T2DA4 001:763 JLINK_WriteReg(R8, 0x00000000)  returns 0x00 (0000ms, 0750ms total)
T2DA4 001:763 JLINK_WriteReg(R9, 0x2000017C)  returns 0x00 (0000ms, 0750ms total)
T2DA4 001:763 JLINK_WriteReg(R10, 0x00000000)  returns 0x00 (0000ms, 0750ms total)
T2DA4 001:763 JLINK_WriteReg(R11, 0x00000000)  returns 0x00 (0000ms, 0750ms total)
T2DA4 001:763 JLINK_WriteReg(R12, 0x00000000)  returns 0x00 (0000ms, 0750ms total)
T2DA4 001:763 JLINK_WriteReg(R13 (SP), 0x20001000)  returns 0x00 (0000ms, 0750ms total)
T2DA4 001:763 JLINK_WriteReg(R14, 0x20000001)  returns 0x00 (0000ms, 0750ms total)
T2DA4 001:763 JLINK_WriteReg(R15 (PC), 0x20000020)  returns 0x00 (0000ms, 0750ms total)
T2DA4 001:763 JLINK_WriteReg(XPSR, 0x01000000)  returns 0x00 (0000ms, 0750ms total)
T2DA4 001:763 JLINK_WriteReg(MSP, 0x20001000)  returns 0x00 (0000ms, 0750ms total)
T2DA4 001:763 JLINK_WriteReg(PSP, 0x20001000)  returns 0x00 (0000ms, 0750ms total)
T2DA4 001:763 JLINK_WriteReg(CFBP, 0x00000000)  returns 0x00 (0000ms, 0750ms total)
T2DA4 001:763 JLINK_SetBPEx(Addr = 0x20000000, Type = 0xFFFFFFF2)  returns 0x00000004 (0000ms, 0750ms total)
T2DA4 001:763 JLINK_Go() (0002ms, 0752ms total)
T2DA4 001:765 JLINK_IsHalted() -- CPU_ReadMem(2 bytes @ 0x20000000)  returns TRUE (0004ms, 0756ms total)
T2DA4 001:769 JLINK_ReadReg(R15 (PC))  returns 0x20000000 (0000ms, 0752ms total)
T2DA4 001:769 JLINK_ClrBPEx(BPHandle = 0x00000004)  returns 0x00 (0000ms, 0752ms total)
T2DA4 001:769 JLINK_ReadReg(R0)  returns 0x00000001 (0000ms, 0752ms total)
T2DA4 001:769 JLINK_WriteReg(R0, 0x08004000)  returns 0x00 (0000ms, 0752ms total)
T2DA4 001:769 JLINK_WriteReg(R1, 0x00004000)  returns 0x00 (0000ms, 0752ms total)
T2DA4 001:769 JLINK_WriteReg(R2, 0x000000FF)  returns 0x00 (0000ms, 0752ms total)
T2DA4 001:769 JLINK_WriteReg(R3, 0x00000000)  returns 0x00 (0000ms, 0752ms total)
T2DA4 001:769 JLINK_WriteReg(R4, 0x00000000)  returns 0x00 (0000ms, 0752ms total)
T2DA4 001:769 JLINK_WriteReg(R5, 0x00000000)  returns 0x00 (0000ms, 0752ms total)
T2DA4 001:769 JLINK_WriteReg(R6, 0x00000000)  returns 0x00 (0000ms, 0752ms total)
T2DA4 001:769 JLINK_WriteReg(R7, 0x00000000)  returns 0x00 (0001ms, 0753ms total)
T2DA4 001:770 JLINK_WriteReg(R8, 0x00000000)  returns 0x00 (0000ms, 0753ms total)
T2DA4 001:770 JLINK_WriteReg(R9, 0x2000017C)  returns 0x00 (0000ms, 0753ms total)
T2DA4 001:770 JLINK_WriteReg(R10, 0x00000000)  returns 0x00 (0000ms, 0753ms total)
T2DA4 001:770 JLINK_WriteReg(R11, 0x00000000)  returns 0x00 (0000ms, 0753ms total)
T2DA4 001:770 JLINK_WriteReg(R12, 0x00000000)  returns 0x00 (0000ms, 0753ms total)
T2DA4 001:770 JLINK_WriteReg(R13 (SP), 0x20001000)  returns 0x00 (0000ms, 0753ms total)
T2DA4 001:770 JLINK_WriteReg(R14, 0x20000001)  returns 0x00 (0000ms, 0753ms total)
T2DA4 001:770 JLINK_WriteReg(R15 (PC), 0x200000BC)  returns 0x00 (0000ms, 0753ms total)
T2DA4 001:770 JLINK_WriteReg(XPSR, 0x01000000)  returns 0x00 (0000ms, 0753ms total)
T2DA4 001:770 JLINK_WriteReg(MSP, 0x20001000)  returns 0x00 (0000ms, 0753ms total)
T2DA4 001:770 JLINK_WriteReg(PSP, 0x20001000)  returns 0x00 (0000ms, 0753ms total)
T2DA4 001:770 JLINK_WriteReg(CFBP, 0x00000000)  returns 0x00 (0000ms, 0753ms total)
T2DA4 001:770 JLINK_SetBPEx(Addr = 0x20000000, Type = 0xFFFFFFF2)  returns 0x00000005 (0000ms, 0753ms total)
T2DA4 001:770 JLINK_Go() (0002ms, 0755ms total)
T2DA4 001:772 JLINK_IsHalted()  returns FALSE (0000ms, 0755ms total)
T2DA4 001:790 JLINK_IsHalted()  returns FALSE (0003ms, 0758ms total)
T2DA4 001:818 JLINK_IsHalted()  returns FALSE (0000ms, 0755ms total)
T2DA4 001:820 JLINK_IsHalted()  returns FALSE (0000ms, 0755ms total)
T2DA4 001:824 JLINK_IsHalted()  returns FALSE (0001ms, 0756ms total)
T2DA4 001:832 JLINK_IsHalted()  returns FALSE (0000ms, 0755ms total)
T2DA4 001:834 JLINK_IsHalted()  returns FALSE (0000ms, 0755ms total)
T2DA4 001:836 JLINK_IsHalted()  returns FALSE (0000ms, 0755ms total)
T2DA4 001:838 JLINK_IsHalted()  returns FALSE (0001ms, 0756ms total)
T2DA4 001:847 JLINK_IsHalted()  returns FALSE (0000ms, 0755ms total)
T2DA4 001:849 JLINK_IsHalted()  returns FALSE (0000ms, 0755ms total)
T2DA4 001:851 JLINK_IsHalted()  returns FALSE (0000ms, 0755ms total)
T2DA4 001:856 JLINK_IsHalted()  returns FALSE (0000ms, 0755ms total)
T2DA4 001:858 JLINK_IsHalted()  returns FALSE (0000ms, 0755ms total)
T2DA4 001:860 JLINK_IsHalted()  returns FALSE (0000ms, 0755ms total)
T2DA4 001:862 JLINK_IsHalted()  returns FALSE (0000ms, 0755ms total)
T2DA4 001:865 JLINK_IsHalted()  returns FALSE (0001ms, 0756ms total)
T2DA4 001:868 JLINK_IsHalted()  returns FALSE (0000ms, 0755ms total)
T2DA4 001:871 JLINK_IsHalted()  returns FALSE (0000ms, 0755ms total)
T2DA4 001:880 JLINK_IsHalted()  returns FALSE (0000ms, 0755ms total)
T2DA4 001:882 JLINK_IsHalted()  returns FALSE (0000ms, 0755ms total)
T2DA4 001:986 JLINK_IsHalted()  returns FALSE (0000ms, 0755ms total)
T2DA4 001:988 JLINK_IsHalted()  returns FALSE (0000ms, 0755ms total)
T2DA4 001:992 JLINK_IsHalted()  returns FALSE (0000ms, 0755ms total)
T2DA4 001:994 JLINK_IsHalted()  returns FALSE (0003ms, 0758ms total)
T2DA4 002:022 JLINK_IsHalted()  returns FALSE (0000ms, 0755ms total)
T2DA4 002:034 JLINK_IsHalted()  returns FALSE (0001ms, 0756ms total)
T2DA4 002:082 JLINK_IsHalted()  returns FALSE (0000ms, 0755ms total)
T2DA4 002:084 JLINK_IsHalted()  returns FALSE (0000ms, 0755ms total)
T2DA4 002:086 JLINK_IsHalted()  returns FALSE (0000ms, 0755ms total)
T2DA4 002:088 JLINK_IsHalted()  returns FALSE (0000ms, 0755ms total)
T2DA4 002:097 JLINK_IsHalted()  returns FALSE (0000ms, 0755ms total)
T2DA4 002:099 JLINK_IsHalted()  returns FALSE (0000ms, 0755ms total)
T2DA4 002:101 JLINK_IsHalted()  returns FALSE (0000ms, 0755ms total)
T2DA4 002:103 JLINK_IsHalted()  returns FALSE (0003ms, 0758ms total)
T2DA4 002:189 JLINK_IsHalted() -- CPU_ReadMem(2 bytes @ 0x20000000)  returns TRUE (0003ms, 0758ms total)
T2DA4 002:192 JLINK_ReadReg(R15 (PC))  returns 0x20000000 (0000ms, 0755ms total)
T2DA4 002:192 JLINK_ClrBPEx(BPHandle = 0x00000005)  returns 0x00 (0000ms, 0755ms total)
T2DA4 002:192 JLINK_ReadReg(R0)  returns 0x00000000 (0000ms, 0755ms total)
T2DA4 002:193 JLINK_WriteReg(R0, 0x00000001)  returns 0x00 (0000ms, 0755ms total)
T2DA4 002:193 JLINK_WriteReg(R1, 0x00004000)  returns 0x00 (0000ms, 0755ms total)
T2DA4 002:193 JLINK_WriteReg(R2, 0x000000FF)  returns 0x00 (0000ms, 0755ms total)
T2DA4 002:193 JLINK_WriteReg(R3, 0x00000000)  returns 0x00 (0000ms, 0755ms total)
T2DA4 002:193 JLINK_WriteReg(R4, 0x00000000)  returns 0x00 (0000ms, 0755ms total)
T2DA4 002:193 JLINK_WriteReg(R5, 0x00000000)  returns 0x00 (0000ms, 0755ms total)
T2DA4 002:193 JLINK_WriteReg(R6, 0x00000000)  returns 0x00 (0000ms, 0755ms total)
T2DA4 002:193 JLINK_WriteReg(R7, 0x00000000)  returns 0x00 (0000ms, 0755ms total)
T2DA4 002:193 JLINK_WriteReg(R8, 0x00000000)  returns 0x00 (0000ms, 0755ms total)
T2DA4 002:193 JLINK_WriteReg(R9, 0x2000017C)  returns 0x00 (0001ms, 0756ms total)
T2DA4 002:194 JLINK_WriteReg(R10, 0x00000000)  returns 0x00 (0000ms, 0756ms total)
T2DA4 002:194 JLINK_WriteReg(R11, 0x00000000)  returns 0x00 (0000ms, 0756ms total)
T2DA4 002:194 JLINK_WriteReg(R12, 0x00000000)  returns 0x00 (0000ms, 0756ms total)
T2DA4 002:194 JLINK_WriteReg(R13 (SP), 0x20001000)  returns 0x00 (0000ms, 0756ms total)
T2DA4 002:194 JLINK_WriteReg(R14, 0x20000001)  returns 0x00 (0000ms, 0756ms total)
T2DA4 002:194 JLINK_WriteReg(R15 (PC), 0x20000082)  returns 0x00 (0000ms, 0756ms total)
T2DA4 002:194 JLINK_WriteReg(XPSR, 0x01000000)  returns 0x00 (0000ms, 0756ms total)
T2DA4 002:194 JLINK_WriteReg(MSP, 0x20001000)  returns 0x00 (0000ms, 0756ms total)
T2DA4 002:194 JLINK_WriteReg(PSP, 0x20001000)  returns 0x00 (0000ms, 0756ms total)
T2DA4 002:194 JLINK_WriteReg(CFBP, 0x00000000)  returns 0x00 (0000ms, 0756ms total)
T2DA4 002:194 JLINK_SetBPEx(Addr = 0x20000000, Type = 0xFFFFFFF2)  returns 0x00000006 (0000ms, 0756ms total)
T2DA4 002:194 JLINK_Go() (0002ms, 0758ms total)
T2DA4 002:196 JLINK_IsHalted() -- CPU_ReadMem(2 bytes @ 0x20000000)  returns TRUE (0006ms, 0764ms total)
T2DA4 002:202 JLINK_ReadReg(R15 (PC))  returns 0x20000000 (0000ms, 0758ms total)
T2DA4 002:202 JLINK_ClrBPEx(BPHandle = 0x00000006)  returns 0x00 (0000ms, 0758ms total)
T2DA4 002:202 JLINK_ReadReg(R0)  returns 0x00000000 (0000ms, 0758ms total)
T2DA4 002:294 JLINK_WriteMem(0x20000000, 0x0180 Bytes, ...) - Data: 00 BE 0A E0 0D 78 2D 06 68 40 08 24 40 00 00 D3 ... -- CPU_WriteMem(384 bytes @ 0x20000000)  returns 0x180 (0005ms, 0763ms total)
T2DA4 002:299 JLINK_WriteReg(R0, 0x08000000)  returns 0x00 (0001ms, 0764ms total)
T2DA4 002:300 JLINK_WriteReg(R1, 0x00B71B00)  returns 0x00 (0000ms, 0764ms total)
T2DA4 002:300 JLINK_WriteReg(R2, 0x00000002)  returns 0x00 (0000ms, 0764ms total)
T2DA4 002:300 JLINK_WriteReg(R3, 0x00000000)  returns 0x00 (0000ms, 0764ms total)
T2DA4 002:300 JLINK_WriteReg(R4, 0x00000000)  returns 0x00 (0000ms, 0764ms total)
T2DA4 002:300 JLINK_WriteReg(R5, 0x00000000)  returns 0x00 (0000ms, 0764ms total)
T2DA4 002:300 JLINK_WriteReg(R6, 0x00000000)  returns 0x00 (0000ms, 0764ms total)
T2DA4 002:300 JLINK_WriteReg(R7, 0x00000000)  returns 0x00 (0000ms, 0764ms total)
T2DA4 002:300 JLINK_WriteReg(R8, 0x00000000)  returns 0x00 (0000ms, 0764ms total)
T2DA4 002:300 JLINK_WriteReg(R9, 0x2000017C)  returns 0x00 (0000ms, 0764ms total)
T2DA4 002:300 JLINK_WriteReg(R10, 0x00000000)  returns 0x00 (0000ms, 0764ms total)
T2DA4 002:300 JLINK_WriteReg(R11, 0x00000000)  returns 0x00 (0000ms, 0764ms total)
T2DA4 002:300 JLINK_WriteReg(R12, 0x00000000)  returns 0x00 (0000ms, 0764ms total)
T2DA4 002:300 JLINK_WriteReg(R13 (SP), 0x20001000)  returns 0x00 (0000ms, 0764ms total)
T2DA4 002:300 JLINK_WriteReg(R14, 0x20000001)  returns 0x00 (0000ms, 0764ms total)
T2DA4 002:300 JLINK_WriteReg(R15 (PC), 0x20000054)  returns 0x00 (0000ms, 0764ms total)
T2DA4 002:300 JLINK_WriteReg(XPSR, 0x01000000)  returns 0x00 (0000ms, 0764ms total)
T2DA4 002:300 JLINK_WriteReg(MSP, 0x20001000)  returns 0x00 (0000ms, 0764ms total)
T2DA4 002:300 JLINK_WriteReg(PSP, 0x20001000)  returns 0x00 (0000ms, 0764ms total)
T2DA4 002:300 JLINK_WriteReg(CFBP, 0x00000000)  returns 0x00 (0000ms, 0764ms total)
T2DA4 002:300 JLINK_SetBPEx(Addr = 0x20000000, Type = 0xFFFFFFF2) -- CPU_ReadMem(2 bytes @ 0x20000000)  returns 0x00000007 (0000ms, 0764ms total)
T2DA4 002:300 JLINK_Go() -- CPU_WriteMem(2 bytes @ 0x20000000) (0003ms, 0767ms total)
T2DA4 002:303 JLINK_IsHalted() -- CPU_ReadMem(2 bytes @ 0x20000000)  returns TRUE (0003ms, 0770ms total)
T2DA4 002:306 JLINK_ReadReg(R15 (PC))  returns 0x20000000 (0000ms, 0767ms total)
T2DA4 002:306 JLINK_ClrBPEx(BPHandle = 0x00000007)  returns 0x00 (0000ms, 0767ms total)
T2DA4 002:306 JLINK_ReadReg(R0)  returns 0x00000000 (0000ms, 0767ms total)
T2DA4 002:307 JLINK_WriteMem(0x20000180, 0x0400 Bytes, ...) - Data: E8 7F 00 20 B5 05 00 08 B5 03 00 08 B7 03 00 08 ... -- CPU_WriteMem(1024 bytes @ 0x20000180)  returns 0x400 (0012ms, 0779ms total)
T2DA4 002:319 JLINK_WriteReg(R0, 0x08000000)  returns 0x00 (0000ms, 0779ms total)
T2DA4 002:319 JLINK_WriteReg(R1, 0x00000400)  returns 0x00 (0000ms, 0779ms total)
T2DA4 002:319 JLINK_WriteReg(R2, 0x20000180)  returns 0x00 (0000ms, 0779ms total)
T2DA4 002:319 JLINK_WriteReg(R3, 0x00000000)  returns 0x00 (0000ms, 0779ms total)
T2DA4 002:319 JLINK_WriteReg(R4, 0x00000000)  returns 0x00 (0000ms, 0779ms total)
T2DA4 002:319 JLINK_WriteReg(R5, 0x00000000)  returns 0x00 (0000ms, 0779ms total)
T2DA4 002:319 JLINK_WriteReg(R6, 0x00000000)  returns 0x00 (0000ms, 0779ms total)
T2DA4 002:319 JLINK_WriteReg(R7, 0x00000000)  returns 0x00 (0000ms, 0779ms total)
T2DA4 002:319 JLINK_WriteReg(R8, 0x00000000)  returns 0x00 (0001ms, 0780ms total)
T2DA4 002:320 JLINK_WriteReg(R9, 0x2000017C)  returns 0x00 (0000ms, 0780ms total)
T2DA4 002:320 JLINK_WriteReg(R10, 0x00000000)  returns 0x00 (0000ms, 0780ms total)
T2DA4 002:320 JLINK_WriteReg(R11, 0x00000000)  returns 0x00 (0000ms, 0780ms total)
T2DA4 002:320 JLINK_WriteReg(R12, 0x00000000)  returns 0x00 (0000ms, 0780ms total)
T2DA4 002:320 JLINK_WriteReg(R13 (SP), 0x20001000)  returns 0x00 (0000ms, 0780ms total)
T2DA4 002:320 JLINK_WriteReg(R14, 0x20000001)  returns 0x00 (0000ms, 0780ms total)
T2DA4 002:320 JLINK_WriteReg(R15 (PC), 0x20000108)  returns 0x00 (0000ms, 0780ms total)
T2DA4 002:320 JLINK_WriteReg(XPSR, 0x01000000)  returns 0x00 (0000ms, 0780ms total)
T2DA4 002:320 JLINK_WriteReg(MSP, 0x20001000)  returns 0x00 (0000ms, 0780ms total)
T2DA4 002:320 JLINK_WriteReg(PSP, 0x20001000)  returns 0x00 (0000ms, 0780ms total)
T2DA4 002:320 JLINK_WriteReg(CFBP, 0x00000000)  returns 0x00 (0000ms, 0780ms total)
T2DA4 002:320 JLINK_SetBPEx(Addr = 0x20000000, Type = 0xFFFFFFF2)  returns 0x00000008 (0000ms, 0780ms total)
T2DA4 002:321 JLINK_Go() (0002ms, 0782ms total)
T2DA4 002:323 JLINK_IsHalted()  returns FALSE (0001ms, 0783ms total)
T2DA4 002:379 JLINK_IsHalted() -- CPU_ReadMem(2 bytes @ 0x20000000)  returns TRUE (0003ms, 0785ms total)
T2DA4 002:382 JLINK_ReadReg(R15 (PC))  returns 0x20000000 (0000ms, 0782ms total)
T2DA4 002:382 JLINK_ClrBPEx(BPHandle = 0x00000008)  returns 0x00 (0000ms, 0782ms total)
T2DA4 002:382 JLINK_ReadReg(R0)  returns 0x00000000 (0000ms, 0782ms total)
T2DA4 002:383 JLINK_WriteMem(0x20000180, 0x0400 Bytes, ...) - Data: 02 68 42 F0 80 52 02 60 45 48 02 68 42 F4 40 42 ... -- CPU_WriteMem(1024 bytes @ 0x20000180)  returns 0x400 (0013ms, 0795ms total)
T2DA4 002:396 JLINK_WriteReg(R0, 0x08000400)  returns 0x00 (0000ms, 0795ms total)
T2DA4 002:396 JLINK_WriteReg(R1, 0x00000400)  returns 0x00 (0000ms, 0795ms total)
T2DA4 002:396 JLINK_WriteReg(R2, 0x20000180)  returns 0x00 (0000ms, 0795ms total)
T2DA4 002:396 JLINK_WriteReg(R3, 0x00000000)  returns 0x00 (0000ms, 0795ms total)
T2DA4 002:396 JLINK_WriteReg(R4, 0x00000000)  returns 0x00 (0000ms, 0795ms total)
T2DA4 002:396 JLINK_WriteReg(R5, 0x00000000)  returns 0x00 (0000ms, 0795ms total)
T2DA4 002:396 JLINK_WriteReg(R6, 0x00000000)  returns 0x00 (0000ms, 0795ms total)
T2DA4 002:396 JLINK_WriteReg(R7, 0x00000000)  returns 0x00 (0000ms, 0795ms total)
T2DA4 002:396 JLINK_WriteReg(R8, 0x00000000)  returns 0x00 (0000ms, 0795ms total)
T2DA4 002:396 JLINK_WriteReg(R9, 0x2000017C)  returns 0x00 (0000ms, 0795ms total)
T2DA4 002:396 JLINK_WriteReg(R10, 0x00000000)  returns 0x00 (0000ms, 0795ms total)
T2DA4 002:396 JLINK_WriteReg(R11, 0x00000000)  returns 0x00 (0000ms, 0795ms total)
T2DA4 002:396 JLINK_WriteReg(R12, 0x00000000)  returns 0x00 (0000ms, 0795ms total)
T2DA4 002:396 JLINK_WriteReg(R13 (SP), 0x20001000)  returns 0x00 (0000ms, 0795ms total)
T2DA4 002:396 JLINK_WriteReg(R14, 0x20000001)  returns 0x00 (0001ms, 0796ms total)
T2DA4 002:397 JLINK_WriteReg(R15 (PC), 0x20000108)  returns 0x00 (0000ms, 0796ms total)
T2DA4 002:397 JLINK_WriteReg(XPSR, 0x01000000)  returns 0x00 (0000ms, 0796ms total)
T2DA4 002:397 JLINK_WriteReg(MSP, 0x20001000)  returns 0x00 (0000ms, 0796ms total)
T2DA4 002:397 JLINK_WriteReg(PSP, 0x20001000)  returns 0x00 (0000ms, 0796ms total)
T2DA4 002:397 JLINK_WriteReg(CFBP, 0x00000000)  returns 0x00 (0000ms, 0796ms total)
T2DA4 002:397 JLINK_SetBPEx(Addr = 0x20000000, Type = 0xFFFFFFF2)  returns 0x00000009 (0000ms, 0796ms total)
T2DA4 002:397 JLINK_Go() (0003ms, 0799ms total)
T2DA4 002:400 JLINK_IsHalted() -- CPU_ReadMem(2 bytes @ 0x20000000)  returns TRUE (0013ms, 0812ms total)
T2DA4 002:413 JLINK_ReadReg(R15 (PC))  returns 0x20000000 (0000ms, 0799ms total)
T2DA4 002:413 JLINK_ClrBPEx(BPHandle = 0x00000009)  returns 0x00 (0000ms, 0799ms total)
T2DA4 002:413 JLINK_ReadReg(R0)  returns 0x00000000 (0000ms, 0799ms total)
T2DA4 002:414 JLINK_WriteMem(0x20000180, 0x0400 Bytes, ...) - Data: 81 71 C1 71 70 47 08 B5 41 F4 80 32 00 92 C2 61 ... -- CPU_WriteMem(1024 bytes @ 0x20000180)  returns 0x400 (0013ms, 0812ms total)
T2DA4 002:427 JLINK_WriteReg(R0, 0x08000800)  returns 0x00 (0000ms, 0812ms total)
T2DA4 002:427 JLINK_WriteReg(R1, 0x00000400)  returns 0x00 (0000ms, 0812ms total)
T2DA4 002:427 JLINK_WriteReg(R2, 0x20000180)  returns 0x00 (0000ms, 0812ms total)
T2DA4 002:427 JLINK_WriteReg(R3, 0x00000000)  returns 0x00 (0000ms, 0812ms total)
T2DA4 002:427 JLINK_WriteReg(R4, 0x00000000)  returns 0x00 (0000ms, 0812ms total)
T2DA4 002:427 JLINK_WriteReg(R5, 0x00000000)  returns 0x00 (0000ms, 0812ms total)
T2DA4 002:427 JLINK_WriteReg(R6, 0x00000000)  returns 0x00 (0000ms, 0812ms total)
T2DA4 002:427 JLINK_WriteReg(R7, 0x00000000)  returns 0x00 (0000ms, 0812ms total)
T2DA4 002:427 JLINK_WriteReg(R8, 0x00000000)  returns 0x00 (0000ms, 0812ms total)
T2DA4 002:427 JLINK_WriteReg(R9, 0x2000017C)  returns 0x00 (0000ms, 0812ms total)
T2DA4 002:427 JLINK_WriteReg(R10, 0x00000000)  returns 0x00 (0000ms, 0812ms total)
T2DA4 002:427 JLINK_WriteReg(R11, 0x00000000)  returns 0x00 (0000ms, 0812ms total)
T2DA4 002:427 JLINK_WriteReg(R12, 0x00000000)  returns 0x00 (0000ms, 0812ms total)
T2DA4 002:427 JLINK_WriteReg(R13 (SP), 0x20001000)  returns 0x00 (0000ms, 0812ms total)
T2DA4 002:427 JLINK_WriteReg(R14, 0x20000001)  returns 0x00 (0000ms, 0812ms total)
T2DA4 002:427 JLINK_WriteReg(R15 (PC), 0x20000108)  returns 0x00 (0000ms, 0812ms total)
T2DA4 002:427 JLINK_WriteReg(XPSR, 0x01000000)  returns 0x00 (0000ms, 0812ms total)
T2DA4 002:427 JLINK_WriteReg(MSP, 0x20001000)  returns 0x00 (0000ms, 0812ms total)
T2DA4 002:427 JLINK_WriteReg(PSP, 0x20001000)  returns 0x00 (0000ms, 0812ms total)
T2DA4 002:427 JLINK_WriteReg(CFBP, 0x00000000)  returns 0x00 (0000ms, 0812ms total)
T2DA4 002:427 JLINK_SetBPEx(Addr = 0x20000000, Type = 0xFFFFFFF2)  returns 0x0000000A (0000ms, 0812ms total)
T2DA4 002:427 JLINK_Go() (0006ms, 0818ms total)
T2DA4 002:433 JLINK_IsHalted()  returns FALSE (0001ms, 0819ms total)
T2DA4 002:445 JLINK_IsHalted() -- CPU_ReadMem(2 bytes @ 0x20000000)  returns TRUE (0003ms, 0821ms total)
T2DA4 002:448 JLINK_ReadReg(R15 (PC))  returns 0x20000000 (0000ms, 0818ms total)
T2DA4 002:448 JLINK_ClrBPEx(BPHandle = 0x0000000A)  returns 0x00 (0000ms, 0818ms total)
T2DA4 002:448 JLINK_ReadReg(R0)  returns 0x00000000 (0000ms, 0818ms total)
T2DA4 002:449 JLINK_WriteMem(0x20000180, 0x0400 Bytes, ...) - Data: 11 68 01 D0 01 43 00 E0 81 43 11 60 70 47 21 4A ... -- CPU_WriteMem(1024 bytes @ 0x20000180)  returns 0x400 (0013ms, 0831ms total)
T2DA4 002:462 JLINK_WriteReg(R0, 0x08000C00)  returns 0x00 (0000ms, 0831ms total)
T2DA4 002:462 JLINK_WriteReg(R1, 0x00000400)  returns 0x00 (0000ms, 0831ms total)
T2DA4 002:462 JLINK_WriteReg(R2, 0x20000180)  returns 0x00 (0000ms, 0831ms total)
T2DA4 002:462 JLINK_WriteReg(R3, 0x00000000)  returns 0x00 (0000ms, 0831ms total)
T2DA4 002:462 JLINK_WriteReg(R4, 0x00000000)  returns 0x00 (0000ms, 0831ms total)
T2DA4 002:462 JLINK_WriteReg(R5, 0x00000000)  returns 0x00 (0000ms, 0831ms total)
T2DA4 002:463 JLINK_WriteReg(R6, 0x00000000)  returns 0x00 (0000ms, 0832ms total)
T2DA4 002:463 JLINK_WriteReg(R7, 0x00000000)  returns 0x00 (0000ms, 0832ms total)
T2DA4 002:463 JLINK_WriteReg(R8, 0x00000000)  returns 0x00 (0000ms, 0832ms total)
T2DA4 002:463 JLINK_WriteReg(R9, 0x2000017C)  returns 0x00 (0000ms, 0832ms total)
T2DA4 002:463 JLINK_WriteReg(R10, 0x00000000)  returns 0x00 (0000ms, 0832ms total)
T2DA4 002:463 JLINK_WriteReg(R11, 0x00000000)  returns 0x00 (0001ms, 0833ms total)
T2DA4 002:464 JLINK_WriteReg(R12, 0x00000000)  returns 0x00 (0000ms, 0833ms total)
T2DA4 002:464 JLINK_WriteReg(R13 (SP), 0x20001000)  returns 0x00 (0000ms, 0833ms total)
T2DA4 002:464 JLINK_WriteReg(R14, 0x20000001)  returns 0x00 (0000ms, 0833ms total)
T2DA4 002:464 JLINK_WriteReg(R15 (PC), 0x20000108)  returns 0x00 (0000ms, 0833ms total)
T2DA4 002:464 JLINK_WriteReg(XPSR, 0x01000000)  returns 0x00 (0000ms, 0833ms total)
T2DA4 002:464 JLINK_WriteReg(MSP, 0x20001000)  returns 0x00 (0000ms, 0833ms total)
T2DA4 002:464 JLINK_WriteReg(PSP, 0x20001000)  returns 0x00 (0000ms, 0833ms total)
T2DA4 002:464 JLINK_WriteReg(CFBP, 0x00000000)  returns 0x00 (0000ms, 0833ms total)
T2DA4 002:464 JLINK_SetBPEx(Addr = 0x20000000, Type = 0xFFFFFFF2)  returns 0x0000000B (0000ms, 0833ms total)
T2DA4 002:464 JLINK_Go() (0003ms, 0836ms total)
T2DA4 002:467 JLINK_IsHalted()  returns FALSE (0000ms, 0836ms total)
T2DA4 002:488 JLINK_IsHalted() -- CPU_ReadMem(2 bytes @ 0x20000000)  returns TRUE (0003ms, 0839ms total)
T2DA4 002:491 JLINK_ReadReg(R15 (PC))  returns 0x20000000 (0000ms, 0836ms total)
T2DA4 002:491 JLINK_ClrBPEx(BPHandle = 0x0000000B)  returns 0x00 (0000ms, 0836ms total)
T2DA4 002:491 JLINK_ReadReg(R0)  returns 0x00000000 (0000ms, 0836ms total)
T2DA4 002:492 JLINK_WriteMem(0x20000180, 0x0400 Bytes, ...) - Data: 10 30 F6 E7 8A 43 02 60 10 BD 02 46 00 20 12 88 ... -- CPU_WriteMem(1024 bytes @ 0x20000180)  returns 0x400 (0013ms, 0849ms total)
T2DA4 002:505 JLINK_WriteReg(R0, 0x08001000)  returns 0x00 (0000ms, 0849ms total)
T2DA4 002:505 JLINK_WriteReg(R1, 0x00000400)  returns 0x00 (0000ms, 0849ms total)
T2DA4 002:505 JLINK_WriteReg(R2, 0x20000180)  returns 0x00 (0000ms, 0849ms total)
T2DA4 002:505 JLINK_WriteReg(R3, 0x00000000)  returns 0x00 (0000ms, 0849ms total)
T2DA4 002:505 JLINK_WriteReg(R4, 0x00000000)  returns 0x00 (0000ms, 0849ms total)
T2DA4 002:505 JLINK_WriteReg(R5, 0x00000000)  returns 0x00 (0000ms, 0849ms total)
T2DA4 002:505 JLINK_WriteReg(R6, 0x00000000)  returns 0x00 (0000ms, 0849ms total)
T2DA4 002:505 JLINK_WriteReg(R7, 0x00000000)  returns 0x00 (0000ms, 0849ms total)
T2DA4 002:505 JLINK_WriteReg(R8, 0x00000000)  returns 0x00 (0000ms, 0849ms total)
T2DA4 002:505 JLINK_WriteReg(R9, 0x2000017C)  returns 0x00 (0000ms, 0849ms total)
T2DA4 002:505 JLINK_WriteReg(R10, 0x00000000)  returns 0x00 (0000ms, 0849ms total)
T2DA4 002:505 JLINK_WriteReg(R11, 0x00000000)  returns 0x00 (0000ms, 0849ms total)
T2DA4 002:505 JLINK_WriteReg(R12, 0x00000000)  returns 0x00 (0000ms, 0849ms total)
T2DA4 002:505 JLINK_WriteReg(R13 (SP), 0x20001000)  returns 0x00 (0000ms, 0849ms total)
T2DA4 002:505 JLINK_WriteReg(R14, 0x20000001)  returns 0x00 (0000ms, 0849ms total)
T2DA4 002:505 JLINK_WriteReg(R15 (PC), 0x20000108)  returns 0x00 (0000ms, 0849ms total)
T2DA4 002:505 JLINK_WriteReg(XPSR, 0x01000000)  returns 0x00 (0000ms, 0849ms total)
T2DA4 002:505 JLINK_WriteReg(MSP, 0x20001000)  returns 0x00 (0000ms, 0849ms total)
T2DA4 002:505 JLINK_WriteReg(PSP, 0x20001000)  returns 0x00 (0000ms, 0849ms total)
T2DA4 002:505 JLINK_WriteReg(CFBP, 0x00000000)  returns 0x00 (0000ms, 0849ms total)
T2DA4 002:505 JLINK_SetBPEx(Addr = 0x20000000, Type = 0xFFFFFFF2)  returns 0x0000000C (0000ms, 0849ms total)
T2DA4 002:505 JLINK_Go() (0002ms, 0851ms total)
T2DA4 002:507 JLINK_IsHalted()  returns FALSE (0000ms, 0851ms total)
T2DA4 002:520 JLINK_IsHalted() -- CPU_ReadMem(2 bytes @ 0x20000000)  returns TRUE (0003ms, 0854ms total)
T2DA4 002:523 JLINK_ReadReg(R15 (PC))  returns 0x20000000 (0000ms, 0851ms total)
T2DA4 002:523 JLINK_ClrBPEx(BPHandle = 0x0000000C)  returns 0x00 (0000ms, 0851ms total)
T2DA4 002:523 JLINK_ReadReg(R0)  returns 0x00000000 (0000ms, 0851ms total)
T2DA4 002:525 JLINK_WriteMem(0x20000180, 0x0400 Bytes, ...) - Data: 10 30 F0 BD 50 5C 18 30 F0 BD 4F F6 FF 74 00 23 ... -- CPU_WriteMem(1024 bytes @ 0x20000180)  returns 0x400 (0013ms, 0864ms total)
T2DA4 002:538 JLINK_WriteReg(R0, 0x08001400)  returns 0x00 (0000ms, 0864ms total)
T2DA4 002:538 JLINK_WriteReg(R1, 0x00000400)  returns 0x00 (0000ms, 0864ms total)
T2DA4 002:538 JLINK_WriteReg(R2, 0x20000180)  returns 0x00 (0000ms, 0864ms total)
T2DA4 002:538 JLINK_WriteReg(R3, 0x00000000)  returns 0x00 (0000ms, 0864ms total)
T2DA4 002:539 JLINK_WriteReg(R4, 0x00000000)  returns 0x00 (0000ms, 0865ms total)
T2DA4 002:539 JLINK_WriteReg(R5, 0x00000000)  returns 0x00 (0000ms, 0865ms total)
T2DA4 002:539 JLINK_WriteReg(R6, 0x00000000)  returns 0x00 (0000ms, 0865ms total)
T2DA4 002:539 JLINK_WriteReg(R7, 0x00000000)  returns 0x00 (0000ms, 0865ms total)
T2DA4 002:539 JLINK_WriteReg(R8, 0x00000000)  returns 0x00 (0000ms, 0865ms total)
T2DA4 002:539 JLINK_WriteReg(R9, 0x2000017C)  returns 0x00 (0000ms, 0865ms total)
T2DA4 002:539 JLINK_WriteReg(R10, 0x00000000)  returns 0x00 (0000ms, 0865ms total)
T2DA4 002:539 JLINK_WriteReg(R11, 0x00000000)  returns 0x00 (0000ms, 0865ms total)
T2DA4 002:539 JLINK_WriteReg(R12, 0x00000000)  returns 0x00 (0000ms, 0865ms total)
T2DA4 002:539 JLINK_WriteReg(R13 (SP), 0x20001000)  returns 0x00 (0000ms, 0865ms total)
T2DA4 002:539 JLINK_WriteReg(R14, 0x20000001)  returns 0x00 (0000ms, 0865ms total)
T2DA4 002:539 JLINK_WriteReg(R15 (PC), 0x20000108)  returns 0x00 (0000ms, 0865ms total)
T2DA4 002:539 JLINK_WriteReg(XPSR, 0x01000000)  returns 0x00 (0000ms, 0865ms total)
T2DA4 002:539 JLINK_WriteReg(MSP, 0x20001000)  returns 0x00 (0000ms, 0865ms total)
T2DA4 002:539 JLINK_WriteReg(PSP, 0x20001000)  returns 0x00 (0000ms, 0865ms total)
T2DA4 002:539 JLINK_WriteReg(CFBP, 0x00000000)  returns 0x00 (0000ms, 0865ms total)
T2DA4 002:539 JLINK_SetBPEx(Addr = 0x20000000, Type = 0xFFFFFFF2)  returns 0x0000000D (0000ms, 0865ms total)
T2DA4 002:539 JLINK_Go() (0002ms, 0867ms total)
T2DA4 002:541 JLINK_IsHalted()  returns FALSE (0000ms, 0867ms total)
T2DA4 002:574 JLINK_IsHalted() -- CPU_ReadMem(2 bytes @ 0x20000000)  returns TRUE (0005ms, 0872ms total)
T2DA4 002:579 JLINK_ReadReg(R15 (PC))  returns 0x20000000 (0000ms, 0867ms total)
T2DA4 002:579 JLINK_ClrBPEx(BPHandle = 0x0000000D)  returns 0x00 (0000ms, 0867ms total)
T2DA4 002:579 JLINK_ReadReg(R0)  returns 0x00000000 (0000ms, 0867ms total)
T2DA4 002:581 JLINK_WriteMem(0x20000180, 0x0400 Bytes, ...) - Data: 8A 46 83 46 00 D1 01 AC 00 20 88 4E 20 60 FF F7 ... -- CPU_WriteMem(1024 bytes @ 0x20000180)  returns 0x400 (0012ms, 0879ms total)
T2DA4 002:593 JLINK_WriteReg(R0, 0x08001800)  returns 0x00 (0000ms, 0879ms total)
T2DA4 002:593 JLINK_WriteReg(R1, 0x00000400)  returns 0x00 (0000ms, 0879ms total)
T2DA4 002:593 JLINK_WriteReg(R2, 0x20000180)  returns 0x00 (0001ms, 0880ms total)
T2DA4 002:594 JLINK_WriteReg(R3, 0x00000000)  returns 0x00 (0000ms, 0880ms total)
T2DA4 002:594 JLINK_WriteReg(R4, 0x00000000)  returns 0x00 (0000ms, 0880ms total)
T2DA4 002:594 JLINK_WriteReg(R5, 0x00000000)  returns 0x00 (0000ms, 0880ms total)
T2DA4 002:594 JLINK_WriteReg(R6, 0x00000000)  returns 0x00 (0000ms, 0880ms total)
T2DA4 002:594 JLINK_WriteReg(R7, 0x00000000)  returns 0x00 (0000ms, 0880ms total)
T2DA4 002:594 JLINK_WriteReg(R8, 0x00000000)  returns 0x00 (0000ms, 0880ms total)
T2DA4 002:594 JLINK_WriteReg(R9, 0x2000017C)  returns 0x00 (0000ms, 0880ms total)
T2DA4 002:594 JLINK_WriteReg(R10, 0x00000000)  returns 0x00 (0000ms, 0880ms total)
T2DA4 002:594 JLINK_WriteReg(R11, 0x00000000)  returns 0x00 (0000ms, 0880ms total)
T2DA4 002:594 JLINK_WriteReg(R12, 0x00000000)  returns 0x00 (0000ms, 0880ms total)
T2DA4 002:594 JLINK_WriteReg(R13 (SP), 0x20001000)  returns 0x00 (0000ms, 0880ms total)
T2DA4 002:594 JLINK_WriteReg(R14, 0x20000001)  returns 0x00 (0000ms, 0880ms total)
T2DA4 002:594 JLINK_WriteReg(R15 (PC), 0x20000108)  returns 0x00 (0000ms, 0880ms total)
T2DA4 002:594 JLINK_WriteReg(XPSR, 0x01000000)  returns 0x00 (0000ms, 0880ms total)
T2DA4 002:594 JLINK_WriteReg(MSP, 0x20001000)  returns 0x00 (0000ms, 0880ms total)
T2DA4 002:594 JLINK_WriteReg(PSP, 0x20001000)  returns 0x00 (0000ms, 0880ms total)
T2DA4 002:594 JLINK_WriteReg(CFBP, 0x00000000)  returns 0x00 (0000ms, 0880ms total)
T2DA4 002:594 JLINK_SetBPEx(Addr = 0x20000000, Type = 0xFFFFFFF2)  returns 0x0000000E (0000ms, 0880ms total)
T2DA4 002:594 JLINK_Go() (0002ms, 0882ms total)
T2DA4 002:596 JLINK_IsHalted()  returns FALSE (0001ms, 0883ms total)
T2DA4 002:616 JLINK_IsHalted() -- CPU_ReadMem(2 bytes @ 0x20000000)  returns TRUE (0003ms, 0885ms total)
T2DA4 002:619 JLINK_ReadReg(R15 (PC))  returns 0x20000000 (0000ms, 0882ms total)
T2DA4 002:619 JLINK_ClrBPEx(BPHandle = 0x0000000E)  returns 0x00 (0000ms, 0882ms total)
T2DA4 002:619 JLINK_ReadReg(R0)  returns 0x00000000 (0000ms, 0882ms total)
T2DA4 002:621 JLINK_WriteMem(0x20000180, 0x0400 Bytes, ...) - Data: F8 D8 BE F1 00 0F 03 D0 50 F8 22 10 40 F8 23 10 ... -- CPU_WriteMem(1024 bytes @ 0x20000180)  returns 0x400 (0012ms, 0894ms total)
T2DA4 002:633 JLINK_WriteReg(R0, 0x08001C00)  returns 0x00 (0001ms, 0895ms total)
T2DA4 002:634 JLINK_WriteReg(R1, 0x00000400)  returns 0x00 (0000ms, 0895ms total)
T2DA4 002:634 JLINK_WriteReg(R2, 0x20000180)  returns 0x00 (0000ms, 0895ms total)
T2DA4 002:634 JLINK_WriteReg(R3, 0x00000000)  returns 0x00 (0000ms, 0895ms total)
T2DA4 002:634 JLINK_WriteReg(R4, 0x00000000)  returns 0x00 (0000ms, 0895ms total)
T2DA4 002:634 JLINK_WriteReg(R5, 0x00000000)  returns 0x00 (0000ms, 0895ms total)
T2DA4 002:634 JLINK_WriteReg(R6, 0x00000000)  returns 0x00 (0000ms, 0895ms total)
T2DA4 002:634 JLINK_WriteReg(R7, 0x00000000)  returns 0x00 (0000ms, 0895ms total)
T2DA4 002:634 JLINK_WriteReg(R8, 0x00000000)  returns 0x00 (0000ms, 0895ms total)
T2DA4 002:634 JLINK_WriteReg(R9, 0x2000017C)  returns 0x00 (0000ms, 0895ms total)
T2DA4 002:634 JLINK_WriteReg(R10, 0x00000000)  returns 0x00 (0000ms, 0895ms total)
T2DA4 002:634 JLINK_WriteReg(R11, 0x00000000)  returns 0x00 (0000ms, 0895ms total)
T2DA4 002:634 JLINK_WriteReg(R12, 0x00000000)  returns 0x00 (0000ms, 0895ms total)
T2DA4 002:634 JLINK_WriteReg(R13 (SP), 0x20001000)  returns 0x00 (0000ms, 0895ms total)
T2DA4 002:634 JLINK_WriteReg(R14, 0x20000001)  returns 0x00 (0000ms, 0895ms total)
T2DA4 002:634 JLINK_WriteReg(R15 (PC), 0x20000108)  returns 0x00 (0000ms, 0895ms total)
T2DA4 002:634 JLINK_WriteReg(XPSR, 0x01000000)  returns 0x00 (0000ms, 0895ms total)
T2DA4 002:634 JLINK_WriteReg(MSP, 0x20001000)  returns 0x00 (0000ms, 0895ms total)
T2DA4 002:634 JLINK_WriteReg(PSP, 0x20001000)  returns 0x00 (0000ms, 0895ms total)
T2DA4 002:634 JLINK_WriteReg(CFBP, 0x00000000)  returns 0x00 (0000ms, 0895ms total)
T2DA4 002:634 JLINK_SetBPEx(Addr = 0x20000000, Type = 0xFFFFFFF2)  returns 0x0000000F (0000ms, 0895ms total)
T2DA4 002:634 JLINK_Go() (0002ms, 0897ms total)
T2DA4 002:636 JLINK_IsHalted()  returns FALSE (0000ms, 0897ms total)
T2DA4 002:641 JLINK_IsHalted() -- CPU_ReadMem(2 bytes @ 0x20000000)  returns TRUE (0003ms, 0900ms total)
T2DA4 002:644 JLINK_ReadReg(R15 (PC))  returns 0x20000000 (0000ms, 0897ms total)
T2DA4 002:644 JLINK_ClrBPEx(BPHandle = 0x0000000F)  returns 0x00 (0000ms, 0897ms total)
T2DA4 002:644 JLINK_ReadReg(R0)  returns 0x00000000 (0000ms, 0897ms total)
T2DA4 002:645 JLINK_WriteMem(0x20000180, 0x0400 Bytes, ...) - Data: 4B 46 10 99 D0 18 09 B1 00 21 01 70 00 21 40 1E ... -- CPU_WriteMem(1024 bytes @ 0x20000180)  returns 0x400 (0014ms, 0911ms total)
T2DA4 002:659 JLINK_WriteReg(R0, 0x08002000)  returns 0x00 (0000ms, 0911ms total)
T2DA4 002:659 JLINK_WriteReg(R1, 0x00000400)  returns 0x00 (0000ms, 0911ms total)
T2DA4 002:659 JLINK_WriteReg(R2, 0x20000180)  returns 0x00 (0000ms, 0911ms total)
T2DA4 002:659 JLINK_WriteReg(R3, 0x00000000)  returns 0x00 (0000ms, 0911ms total)
T2DA4 002:659 JLINK_WriteReg(R4, 0x00000000)  returns 0x00 (0000ms, 0911ms total)
T2DA4 002:659 JLINK_WriteReg(R5, 0x00000000)  returns 0x00 (0000ms, 0911ms total)
T2DA4 002:659 JLINK_WriteReg(R6, 0x00000000)  returns 0x00 (0000ms, 0911ms total)
T2DA4 002:659 JLINK_WriteReg(R7, 0x00000000)  returns 0x00 (0000ms, 0911ms total)
T2DA4 002:659 JLINK_WriteReg(R8, 0x00000000)  returns 0x00 (0000ms, 0911ms total)
T2DA4 002:659 JLINK_WriteReg(R9, 0x2000017C)  returns 0x00 (0000ms, 0911ms total)
T2DA4 002:659 JLINK_WriteReg(R10, 0x00000000)  returns 0x00 (0000ms, 0911ms total)
T2DA4 002:659 JLINK_WriteReg(R11, 0x00000000)  returns 0x00 (0000ms, 0911ms total)
T2DA4 002:659 JLINK_WriteReg(R12, 0x00000000)  returns 0x00 (0001ms, 0912ms total)
T2DA4 002:660 JLINK_WriteReg(R13 (SP), 0x20001000)  returns 0x00 (0000ms, 0912ms total)
T2DA4 002:660 JLINK_WriteReg(R14, 0x20000001)  returns 0x00 (0000ms, 0912ms total)
T2DA4 002:660 JLINK_WriteReg(R15 (PC), 0x20000108)  returns 0x00 (0000ms, 0912ms total)
T2DA4 002:660 JLINK_WriteReg(XPSR, 0x01000000)  returns 0x00 (0000ms, 0912ms total)
T2DA4 002:660 JLINK_WriteReg(MSP, 0x20001000)  returns 0x00 (0000ms, 0912ms total)
T2DA4 002:660 JLINK_WriteReg(PSP, 0x20001000)  returns 0x00 (0000ms, 0912ms total)
T2DA4 002:660 JLINK_WriteReg(CFBP, 0x00000000)  returns 0x00 (0000ms, 0912ms total)
T2DA4 002:660 JLINK_SetBPEx(Addr = 0x20000000, Type = 0xFFFFFFF2)  returns 0x00000010 (0000ms, 0912ms total)
T2DA4 002:660 JLINK_Go() (0002ms, 0914ms total)
T2DA4 002:662 JLINK_IsHalted()  returns FALSE (0000ms, 0914ms total)
T2DA4 002:664 JLINK_IsHalted()  returns FALSE (0002ms, 0916ms total)
T2DA4 002:668 JLINK_IsHalted() -- CPU_ReadMem(2 bytes @ 0x20000000)  returns TRUE (0007ms, 0921ms total)
T2DA4 002:675 JLINK_ReadReg(R15 (PC))  returns 0x20000000 (0000ms, 0914ms total)
T2DA4 002:675 JLINK_ClrBPEx(BPHandle = 0x00000010)  returns 0x00 (0000ms, 0914ms total)
T2DA4 002:675 JLINK_ReadReg(R0)  returns 0x00000000 (0000ms, 0914ms total)
T2DA4 002:677 JLINK_WriteMem(0x20000180, 0x0400 Bytes, ...) - Data: 01 3B 00 F8 01 3B 11 F8 01 3B 00 F8 01 3B 11 F8 ... -- CPU_WriteMem(1024 bytes @ 0x20000180)  returns 0x400 (0013ms, 0927ms total)
T2DA4 002:690 JLINK_WriteReg(R0, 0x08002400)  returns 0x00 (0000ms, 0927ms total)
T2DA4 002:690 JLINK_WriteReg(R1, 0x00000400)  returns 0x00 (0000ms, 0927ms total)
